! Anritsu VNA Master:                        Model: MS2038C/15
! SN:                                  1304022
! /card0/usr/tempdata.s2p
! Existing Calibration Information:
! TYPE:                         Current Settings,       Active Cal Settings
! TIME:             	   06/24/2023 01:53:31 PM,    06/16/2023 11:33:35 AM
! INTERNAL TEMP:    	                   42.3 C,                    54.5 C
! # POINTS:         	                     2000,                      4001
! START FREQ:       	                1.000 GHz,                 5.000 kHz
! STOP FREQ:        	               15.000 GHz,                20.000 GHz
! SOURCE POWER:     	                      Low,                       Low
! IFBW:             	                    2 kHz,                     2 kHz
! AVG FACTOR:       	                       1 ,                        1 
! REF PLANE 1:      	                     0 mm,                      0 mm
! REF PLANE 2:      	                     0 mm,                      0 mm
! CAL TYPE:         	       Response S21 & S12,        Response S21 & S12
! CAL METHOD:       	                     SOLT,                      SOLT
! CAL LINE TYPE:    	                     Coax,                      Coax
! DUT PORT 1:       	                N-Conn(M),                 N-Conn(M)
! DUT PORT 2:       	                N-Conn(M),                 N-Conn(M)
! CAL STATUS:       	                      OFF,                        --
# GHZ S DB R 50.0
! FREQ.GHZ       S11DB        S11A       S21DB        S21A       S12DB        S12A       S22DB        S22A
  1.000000000  -24.374517   32.711441  -68.307072   30.843372    0.000000    0.000000    0.000000    0.000000
  1.007003502  -22.983429   12.544921  -72.937916   31.241095    0.000000    0.000000    0.000000    0.000000
  1.014007004  -20.955097   -8.788903  -65.927763   -0.771026    0.000000    0.000000    0.000000    0.000000
  1.021010505  -22.585687  -47.771202  -80.359153   49.038666    0.000000    0.000000    0.000000    0.000000
  1.028014007  -29.870655  -68.028542  -71.561437 -146.666077    0.000000    0.000000    0.000000    0.000000
  1.035017509  -30.390837   91.613853  -67.619951  108.466576    0.000000    0.000000    0.000000    0.000000
  1.042021011  -23.557835   34.421818  -74.596372 -169.016266    0.000000    0.000000    0.000000    0.000000
  1.049024512  -19.750896   -2.237248  -62.205415    8.928137    0.000000    0.000000    0.000000    0.000000
  1.056028014  -20.423432  -42.680222  -68.901099  -32.490307    0.000000    0.000000    0.000000    0.000000
  1.063031516  -23.650703  -58.957924  -69.748737   19.246586    0.000000    0.000000    0.000000    0.000000
  1.070035018  -34.465683  -66.958000  -72.520363   11.755494    0.000000    0.000000    0.000000    0.000000
  1.077038519  -29.392154   28.591625  -73.534969  132.829605    0.000000    0.000000    0.000000    0.000000
  1.084042021  -22.815991   11.197614  -67.773628  101.020981    0.000000    0.000000    0.000000    0.000000
  1.091045523  -20.457594  -15.573969  -61.188437  -92.875145    0.000000    0.000000    0.000000    0.000000
  1.098049025  -19.386693  -50.035488  -62.580516  -60.819569    0.000000    0.000000    0.000000    0.000000
  1.105052526  -21.221616  -86.626221  -67.406188   31.440990    0.000000    0.000000    0.000000    0.000000
  1.112056028  -31.032447 -114.833305  -80.279326  146.681305    0.000000    0.000000    0.000000    0.000000
  1.119059530  -27.401244   50.958805  -76.905161 -144.804886    0.000000    0.000000    0.000000    0.000000
  1.126063032  -20.313936   -6.818195  -67.593027 -130.054214    0.000000    0.000000    0.000000    0.000000
  1.133066533  -18.995295  -38.300304  -66.775705  119.078568    0.000000    0.000000    0.000000    0.000000
  1.140070035  -20.177934  -63.697845  -66.932749 -126.090088    0.000000    0.000000    0.000000    0.000000
  1.147073537  -22.768313  -88.368942  -69.364850 -163.276215    0.000000    0.000000    0.000000    0.000000
  1.154077039  -30.974426  -83.391167  -65.365856   61.687962    0.000000    0.000000    0.000000    0.000000
  1.161080540  -29.018560   -7.913909  -73.789393  171.984238    0.000000    0.000000    0.000000    0.000000
  1.168084042  -22.901504  -18.755077  -65.588947   71.454338    0.000000    0.000000    0.000000    0.000000
  1.175087544  -20.807519  -42.566605  -66.100817  110.328835    0.000000    0.000000    0.000000    0.000000
  1.182091046  -19.704265  -75.770432  -72.066897 -168.866089    0.000000    0.000000    0.000000    0.000000
  1.189094547  -23.944776  -98.091599  -79.833088  -64.321274    0.000000    0.000000    0.000000    0.000000
  1.196098049  -33.142870 -101.037842  -74.798399   76.965202    0.000000    0.000000    0.000000    0.000000
  1.203101551  -24.275555  -16.754568  -86.580456  -74.608711    0.000000    0.000000    0.000000    0.000000
  1.210105053  -22.034011  -43.739597  -74.513069  119.616081    0.000000    0.000000    0.000000    0.000000
  1.217108554  -19.727469  -73.642754  -69.271730 -176.645477    0.000000    0.000000    0.000000    0.000000
  1.224112056  -20.095632  -97.262314  -69.163186   10.446362    0.000000    0.000000    0.000000    0.000000
  1.231115558  -24.084271 -119.543381  -71.584395  164.284729    0.000000    0.000000    0.000000    0.000000
  1.238119060  -31.992125  -98.667801  -70.134562   -7.879206    0.000000    0.000000    0.000000    0.000000
  1.245122561  -27.690017  -29.361771  -67.646911  101.329163    0.000000    0.000000    0.000000    0.000000
  1.252126063  -21.177609  -50.677494  -78.078218   86.216270    0.000000    0.000000    0.000000    0.000000
  1.259129565  -18.620656  -78.332909  -74.083408  111.185783    0.000000    0.000000    0.000000    0.000000
  1.266133067  -19.632953 -109.889221  -70.664983  117.299522    0.000000    0.000000    0.000000    0.000000
  1.273136568  -22.953360 -145.760956  -68.618467  -31.290285    0.000000    0.000000    0.000000    0.000000
  1.280140070  -43.064364  118.163887  -72.621826 -162.924652    0.000000    0.000000    0.000000    0.000000
  1.287143572  -26.616123  -44.396183  -63.891612   95.957230    0.000000    0.000000    0.000000    0.000000
  1.294147074  -20.921497  -59.403008  -79.223512   -5.981806    0.000000    0.000000    0.000000    0.000000
  1.301150575  -19.479755  -93.817299  -68.711464 -159.755157    0.000000    0.000000    0.000000    0.000000
  1.308154077  -20.093550 -125.292236  -79.083953  118.584106    0.000000    0.000000    0.000000    0.000000
  1.315157579  -21.308499 -144.312790  -75.768959  143.879242    0.000000    0.000000    0.000000    0.000000
  1.322161081  -29.621449  166.807465  -66.656050  -18.386683    0.000000    0.000000    0.000000    0.000000
  1.329164582  -29.246817  -29.931065  -69.539754  -81.119736    0.000000    0.000000    0.000000    0.000000
  1.336168084  -20.911423  -74.737839  -69.296408   89.897987    0.000000    0.000000    0.000000    0.000000
  1.343171586  -19.552397 -113.107567  -69.050793  -33.454861    0.000000    0.000000    0.000000    0.000000
  1.350175088  -20.874730 -140.283981  -69.505449 -105.652008    0.000000    0.000000    0.000000    0.000000
  1.357178589  -24.967628 -156.873093  -72.448859 -107.089119    0.000000    0.000000    0.000000    0.000000
  1.364182091  -31.273558 -129.918320  -65.825424   13.530400    0.000000    0.000000    0.000000    0.000000
  1.371185593  -27.553794 -100.862991  -72.504785   56.326694    0.000000    0.000000    0.000000    0.000000
  1.378189095  -22.562395 -106.881775  -62.399752  156.696426    0.000000    0.000000    0.000000    0.000000
  1.385192596  -20.696883 -125.329803  -67.016913   32.688541    0.000000    0.000000    0.000000    0.000000
  1.392196098  -20.811334 -152.448608  -65.546508  -82.892647    0.000000    0.000000    0.000000    0.000000
  1.399199600  -25.827457  174.865158  -65.061430 -173.895493    0.000000    0.000000    0.000000    0.000000
  1.406203102  -41.248464 -156.455460  -68.341875   38.808708    0.000000    0.000000    0.000000    0.000000
  1.413206603  -23.781705  -90.238159  -61.460618  -76.113914    0.000000    0.000000    0.000000    0.000000
  1.420210105  -20.237402 -117.670074  -66.247951   50.587223    0.000000    0.000000    0.000000    0.000000
  1.427213607  -19.583850 -153.373306  -69.369964   61.701046    0.000000    0.000000    0.000000    0.000000
  1.434217109  -20.311024  177.925095  -70.941541   22.773874    0.000000    0.000000    0.000000    0.000000
  1.441220610  -26.256899  149.597046  -78.420269  -73.177132    0.000000    0.000000    0.000000    0.000000
  1.448224112  -36.212277 -143.551834  -66.872300 -157.827972    0.000000    0.000000    0.000000    0.000000
  1.455227614  -25.655594 -106.914436  -69.484314   90.947899    0.000000    0.000000    0.000000    0.000000
  1.462231116  -22.201423 -128.804108  -71.503250 -130.466965    0.000000    0.000000    0.000000    0.000000
  1.469234617  -18.582426 -160.586166  -70.424448  -85.473351    0.000000    0.000000    0.000000    0.000000
  1.476238119  -19.199083  168.968170  -66.644820   90.554993    0.000000    0.000000    0.000000    0.000000
  1.483241621  -23.327559  130.905960  -70.626211  -48.532185    0.000000    0.000000    0.000000    0.000000
  1.490245123  -38.092290   92.165787  -62.038505  128.352890    0.000000    0.000000    0.000000    0.000000
  1.497248624  -26.678374 -118.284584  -63.312755  108.848228    0.000000    0.000000    0.000000    0.000000
  1.504252126  -21.647168 -138.074753  -65.123219  -36.923119    0.000000    0.000000    0.000000    0.000000
  1.511255628  -20.393072 -173.537247  -64.174686 -115.781105    0.000000    0.000000    0.000000    0.000000
  1.518259130  -21.798425  164.098587  -75.359119   95.223358    0.000000    0.000000    0.000000    0.000000
  1.525262631  -23.493502  140.095749  -63.798130   13.540565    0.000000    0.000000    0.000000    0.000000
  1.532266133  -31.658624  134.872055  -69.972564  -96.768898    0.000000    0.000000    0.000000    0.000000
  1.539269635  -29.722099 -158.529404  -77.028128  120.064095    0.000000    0.000000    0.000000    0.000000
  1.546273137  -23.109549 -168.992691  -71.726224   39.074818    0.000000    0.000000    0.000000    0.000000
  1.553276638  -19.944460  164.037628  -71.619796  -89.724869    0.000000    0.000000    0.000000    0.000000
  1.560280140  -22.033020  132.618622  -77.181515  -66.857567    0.000000    0.000000    0.000000    0.000000
  1.567283642  -27.881935  112.361458  -73.136321  135.519882    0.000000    0.000000    0.000000    0.000000
  1.574287144  -33.317136 -165.432907  -64.642186  -80.943230    0.000000    0.000000    0.000000    0.000000
  1.581290645  -23.572781 -166.936569  -67.893313 -154.630600    0.000000    0.000000    0.000000    0.000000
  1.588294147  -21.187553  166.442368  -65.351889   89.322998    0.000000    0.000000    0.000000    0.000000
  1.595297649  -20.905583  139.110031  -74.445231  -20.945217    0.000000    0.000000    0.000000    0.000000
  1.602301151  -21.656310  111.638771  -66.679120 -134.571594    0.000000    0.000000    0.000000    0.000000
  1.609304652  -25.890141   83.264175  -68.081567  138.088654    0.000000    0.000000    0.000000    0.000000
  1.616308154  -51.352027   37.613041  -64.891393  -16.963871    0.000000    0.000000    0.000000    0.000000
  1.623311656  -24.849879 -171.852478  -72.839774  -82.892860    0.000000    0.000000    0.000000    0.000000
  1.630315158  -20.135278  165.479065  -68.225585  144.209763    0.000000    0.000000    0.000000    0.000000
  1.637318659  -18.620284  132.449234  -63.607617   73.249229    0.000000    0.000000    0.000000    0.000000
  1.644322161  -20.436803   96.831078  -62.581102  -92.915909    0.000000    0.000000    0.000000    0.000000
  1.651325663  -26.449544   72.305138  -67.735550  103.675606    0.000000    0.000000    0.000000    0.000000
  1.658329165  -41.671626  135.050735  -68.617197   52.033226    0.000000    0.000000    0.000000    0.000000
  1.665332666  -27.345421  167.836197  -65.046319  -77.324364    0.000000    0.000000    0.000000    0.000000
  1.672336168  -21.699140  153.341003  -69.535762  179.268875    0.000000    0.000000    0.000000    0.000000
  1.679339670  -20.006076  125.432419  -64.491944   82.783501    0.000000    0.000000    0.000000    0.000000
  1.686343172  -20.384310   94.492340  -65.328875  -13.932069    0.000000    0.000000    0.000000    0.000000
  1.693346673  -23.292400   64.926613  -68.196808  -66.836433    0.000000    0.000000    0.000000    0.000000
  1.700350175  -31.738914   60.455643  -67.804204  132.136734    0.000000    0.000000    0.000000    0.000000
  1.707353677  -28.148619  153.639954  -78.015838  -17.283583    0.000000    0.000000    0.000000    0.000000
  1.714357179  -22.105584  133.061401  -71.769465  -88.027916    0.000000    0.000000    0.000000    0.000000
  1.721360680  -20.334889   99.498421  -63.926456  162.960602    0.000000    0.000000    0.000000    0.000000
  1.728364182  -22.427436   76.694565  -68.049117   -9.695595    0.000000    0.000000    0.000000    0.000000
  1.735367684  -27.780697   72.780853  -65.351707  -57.553291    0.000000    0.000000    0.000000    0.000000
  1.742371186  -27.858528  103.839203  -72.494784   49.278912    0.000000    0.000000    0.000000    0.000000
  1.749374687  -23.466736  111.476440  -62.615351   47.927605    0.000000    0.000000    0.000000    0.000000
  1.756378189  -20.183820  105.069191  -65.874536  -96.995422    0.000000    0.000000    0.000000    0.000000
  1.763381691  -19.763707   79.902092  -65.506356  179.969696    0.000000    0.000000    0.000000    0.000000
  1.770385193  -21.425216   52.411957  -66.564520  108.388115    0.000000    0.000000    0.000000    0.000000
  1.777388694  -28.691488   28.676991  -68.515081  -77.812141    0.000000    0.000000    0.000000    0.000000
  1.784392196  -32.290755  121.203903  -60.943855 -111.860321    0.000000    0.000000    0.000000    0.000000
  1.791395698  -21.690791  123.814735  -76.679293   87.138771    0.000000    0.000000    0.000000    0.000000
  1.798399200  -18.295495   97.041199  -66.414632   17.835556    0.000000    0.000000    0.000000    0.000000
  1.805402701  -18.464198   64.772873  -64.958189  -98.992859    0.000000    0.000000    0.000000    0.000000
  1.812406203  -20.055137   39.197697  -76.130700  136.235077    0.000000    0.000000    0.000000    0.000000
  1.819409705  -24.663811   13.453670  -65.223134   -4.787476    0.000000    0.000000    0.000000    0.000000
  1.826413207  -37.996525   82.656883  -65.141925  -77.753342    0.000000    0.000000    0.000000    0.000000
  1.833416708  -24.392211  114.568130  -67.713683  155.388245    0.000000    0.000000    0.000000    0.000000
  1.840420210  -19.522680   84.586945  -74.652650   51.416145    0.000000    0.000000    0.000000    0.000000
  1.847423712  -18.362770   53.294605  -64.104707  -69.684868    0.000000    0.000000    0.000000    0.000000
  1.854427214  -18.936250   28.515587  -67.623138 -146.267593    0.000000    0.000000    0.000000    0.000000
  1.861430715  -23.274574    7.841385  -64.884844  101.041916    0.000000    0.000000    0.000000    0.000000
  1.868434217  -30.690809   44.769722  -65.355748  -22.029861    0.000000    0.000000    0.000000    0.000000
  1.875437719  -24.918061   71.653587  -67.232982  153.897736    0.000000    0.000000    0.000000    0.000000
  1.882441221  -20.780781   60.887634  -67.493089   28.588659    0.000000    0.000000    0.000000    0.000000
  1.889444722  -19.948201   37.839584  -62.208404   71.982330    0.000000    0.000000    0.000000    0.000000
  1.896448224  -20.247951   24.728094  -69.621397 -142.089996    0.000000    0.000000    0.000000    0.000000
  1.903451726  -24.322575    8.185543  -63.846918  122.285614    0.000000    0.000000    0.000000    0.000000
  1.910455228  -27.205973   36.039753  -68.623916   32.945408    0.000000    0.000000    0.000000    0.000000
  1.917458729  -22.162016   56.259712  -65.739684 -102.264870    0.000000    0.000000    0.000000    0.000000
  1.924462231  -19.080996   39.014713  -66.786899  166.575958    0.000000    0.000000    0.000000    0.000000
  1.931465733  -19.094137   15.102183  -66.919567   83.293159    0.000000    0.000000    0.000000    0.000000
  1.938469235  -21.810303   -5.898833  -66.685179  -49.103558    0.000000    0.000000    0.000000    0.000000
  1.945472736  -26.746533   -5.354026  -66.067051 -131.536942    0.000000    0.000000    0.000000    0.000000
  1.952476238  -26.832330   42.425972  -61.878654   58.685291    0.000000    0.000000    0.000000    0.000000
  1.959479740  -22.165251   38.071011  -69.667636  -42.192398    0.000000    0.000000    0.000000    0.000000
  1.966483242  -18.284776   24.649664  -66.980984 -119.071861    0.000000    0.000000    0.000000    0.000000
  1.973486743  -17.670457    0.183416  -62.473046   85.230370    0.000000    0.000000    0.000000    0.000000
  1.980490245  -19.756155  -20.688877  -75.996780 -127.182251    0.000000    0.000000    0.000000    0.000000
  1.987493747  -24.960446  -41.033607  -66.092952 -113.311050    0.000000    0.000000    0.000000    0.000000
  1.994497249  -31.300104   29.038601  -72.593089  162.078506    0.000000    0.000000    0.000000    0.000000
  2.001500750  -21.370072   39.741940  -65.442068    4.689557    0.000000    0.000000    0.000000    0.000000
  2.008504252  -17.800525   13.461730  -64.277964  -20.397375    0.000000    0.000000    0.000000    0.000000
  2.015507754  -17.230111   -8.259196  -72.023764 -165.520782    0.000000    0.000000    0.000000    0.000000
  2.022511256  -19.054370  -30.438000  -69.159563   36.579960    0.000000    0.000000    0.000000    0.000000
  2.029514757  -22.071046  -45.285763  -70.255600  -32.046700    0.000000    0.000000    0.000000    0.000000
  2.036518259  -27.819312  -24.734489  -67.654350 -139.839859    0.000000    0.000000    0.000000    0.000000
  2.043521761  -23.684390   12.034581  -68.528736   88.071953    0.000000    0.000000    0.000000    0.000000
  2.050525263  -19.724126   -1.237838  -69.835513  -48.905308    0.000000    0.000000    0.000000    0.000000
  2.057528764  -17.714359  -20.469028  -65.922285 -174.385864    0.000000    0.000000    0.000000    0.000000
  2.064532266  -18.947019  -41.362598  -66.507422   99.060104    0.000000    0.000000    0.000000    0.000000
  2.071535768  -23.147765  -53.737232  -65.936482   28.004101    0.000000    0.000000    0.000000    0.000000
  2.078539270  -24.969674  -30.938526  -62.959170 -126.480019    0.000000    0.000000    0.000000    0.000000
  2.085542771  -21.216592  -12.602685  -65.092670  137.483444    0.000000    0.000000    0.000000    0.000000
  2.092546273  -19.810052  -28.683004  -62.062446   39.677670    0.000000    0.000000    0.000000    0.000000
  2.099549775  -19.183361  -47.432289  -64.375888  -75.468094    0.000000    0.000000    0.000000    0.000000
  2.106553277  -21.695705  -60.269352  -66.066823  168.463135    0.000000    0.000000    0.000000    0.000000
  2.113556778  -23.822271  -58.800293  -62.851107   62.374710    0.000000    0.000000    0.000000    0.000000
  2.120560280  -24.288496  -34.040722  -68.097458  -52.294472    0.000000    0.000000    0.000000    0.000000
  2.127563782  -19.432110  -30.671667  -61.113080 -169.341049    0.000000    0.000000    0.000000    0.000000
  2.134567284  -17.847153  -42.755146  -67.571580   94.550934    0.000000    0.000000    0.000000    0.000000
  2.141570785  -17.702466  -66.113335  -62.030721  -59.180618    0.000000    0.000000    0.000000    0.000000
  2.148574287  -19.625622  -87.537300  -64.575041 -147.882141    0.000000    0.000000    0.000000    0.000000
  2.155577789  -25.181074  -97.679535  -68.429779  152.538712    0.000000    0.000000    0.000000    0.000000
  2.162581291  -24.977783  -34.867386  -60.740507   11.901277    0.000000    0.000000    0.000000    0.000000
